
T4038 000:010 SEGGER J-Link V6.16c Log File (0001ms, 0011ms total)
T4038 000:010 DLL Compiled: Jun 16 2017 18:14:49 (0001ms, 0011ms total)
T4038 000:010 Logging started @ 2020-03-05 19:08 (0001ms, 0011ms total)
T4038 000:011 JLINK_SetWarnOutHandler(...) (0001ms, 0012ms total)
T4038 000:012 JLINK_OpenEx(...)
Firmware: J-Link OB-STM32F072-CortexM compiled Mar  8 2020 11:15:54
Hardware: V1.00
S/N: 20171111
Feature(s): GDB, RDI, FlashBP, FlashDL, JFlash, RDDIWEBSRV Webserver running on local port 19080 (0078ms, 0090ms total)
T4038 000:012   returns O.K. (0078ms, 0090ms total)
T4038 000:090 JLINK_GetEmuCaps()  returns 0xB8EA5A33 (0000ms, 0090ms total)
T4038 000:090 JLINK_TIF_GetAvailable(...) (0000ms, 0090ms total)
T4038 000:091 JLINK_SetErrorOutHandler(...) (0000ms, 0091ms total)
T4038 000:091 JLINK_ExecCommand("ProjectFile = "C:\Users\antymistor\Desktop\Ethernet-com\Netdemo_client\USER\JLinkSettings.ini"", ...).   returns 0x00 (0174ms, 0265ms total)
T4038 000:273 JLINK_ExecCommand("Device = STM32F103C8", ...). Device "STM32F103C8" selected.  returns 0x00 (0013ms, 0278ms total)
T4038 000:286 JLINK_ExecCommand("DisableConnectionTimeout", ...).   returns 0x01 (0000ms, 0278ms total)
T4038 000:286 JLINK_GetHardwareVersion()  returns 0x2710 (0001ms, 0279ms total)
T4038 000:287 JLINK_GetDLLVersion()  returns 61603 (0000ms, 0279ms total)
T4038 000:287 JLINK_GetFirmwareString(...) (0000ms, 0279ms total)
T4038 000:311 JLINK_GetDLLVersion()  returns 61603 (0000ms, 0279ms total)
T4038 000:311 JLINK_GetCompileDateTime() (0000ms, 0279ms total)
T4038 000:319 JLINK_GetFirmwareString(...) (0000ms, 0279ms total)
T4038 000:326 JLINK_GetHardwareVersion()  returns 0x2710 (0000ms, 0279ms total)
T4038 000:356 JLINK_TIF_Select(JLINKARM_TIF_SWD)  returns 0x00 (0001ms, 0280ms total)
T4038 000:357 JLINK_SetSpeed(5000) (0000ms, 0280ms total)
T4038 000:357 JLINK_GetId() >0x10B TIF>Found SW-DP with ID 0x1BA01477 >0x0D TIF> >0x28 TIF> >0x0D TIF> >0x28 TIF> >0x0D TIF> >0x28 TIF> >0x0D TIF> >0x28 TIF> >0x0D TIF> >0x21 TIF> >0x0D TIF> >0x28 TIF> >0x0D TIF> >0x28 TIF> >0x0D TIF> >0x28 TIF> >0x0D TIF> >0x21 TIF> >0x0D TIF> >0x21 TIF> >0x0D TIF> >0x28 TIF> >0x0D TIF> >0x21 TIF> >0x0D TIF> >0x21 TIF> >0x0D TIF> >0x28 TIF> >0x0D TIF> >0x28 TIF> >0x0D TIF> >0x28 TIF> >0x0D TIF> >0x21 TIF> >0x0D TIF> >0x21 TIF> >0x0D TIF> >0x28 TIF> >0x0D TIF> >0x21 TIF>
 >0x0D TIF> >0x21 TIF> >0x0D TIF> >0x28 TIF> >0x0D TIF> >0x21 TIF> >0x0D TIF> >0x21 TIF> >0x0D TIF> >0x28 TIF> >0x0D TIF> >0x21 TIF> >0x0D TIF> >0x21 TIF> >0x0D TIF> >0x28 TIF> >0x0D TIF> >0x21 TIF> >0x0D TIF> >0x21 TIF> >0x10B TIF>Found SW-DP with ID 0x1BA01477 >0x0D TIF> >0x28 TIF> >0x0D TIF> >0x28 TIF> >0x0D TIF> >0x28 TIF> >0x0D TIF> >0x28 TIF> >0x0D TIF> >0x21 TIF> >0x0D TIF> >0x28 TIF>Scanning APs, stopping at first AHB-AP found. >0x0D TIF> >0x28 TIF> >0x0D TIF> >0x21 TIF> >0x0D TIF> >0x21 TIF>
AP[0] IDR: 0x14770011 (AHB-AP) >0x0D TIF> >0x28 TIF> >0x0D TIF> >0x21 TIF> >0x0D TIF> >0x21 TIF>AHB-AP ROM: 0xE00FF000 (Base addr. of first ROM table) >0x0D TIF> >0x28 TIF> >0x0D TIF> >0x28 TIF> >0x0D TIF> >0x28 TIF> >0x0D TIF> >0x21 TIF> >0x0D TIF> >0x21 TIF> >0x0D TIF> >0x28 TIF> >0x0D TIF> >0x21 TIF> >0x0D TIF> >0x21 TIF>CPUID reg: 0x411FC231. Implementer code: 0x41 (ARM)Found Cortex-M3 r1p1, Little endian. -- CPU_ReadMem(4 bytes @ 0xE000EDF0) -- CPU_WriteMem(4 bytes @ 0xE000EDF0)
 -- CPU_ReadMem(4 bytes @ 0xE0002000)FPUnit: 6 code (BP) slots and 2 literal slots -- CPU_ReadMem(4 bytes @ 0xE000EDFC) -- CPU_WriteMem(4 bytes @ 0xE000EDFC) -- CPU_ReadMem(4 bytes @ 0xE0001000) -- CPU_WriteMem(4 bytes @ 0xE0001000) -- CPU_ReadMem(4 bytes @ 0xE000ED88) -- CPU_WriteMem(4 bytes @ 0xE000ED88) -- CPU_ReadMem(4 bytes @ 0xE000ED88) -- CPU_WriteMem(4 bytes @ 0xE000ED88)CoreSight components:ROMTbl[0] @ E00FF000 -- CPU_ReadMem(16 bytes @ 0xE00FF000) -- CPU_ReadMem(16 bytes @ 0xE000EFF0)
 -- CPU_ReadMem(16 bytes @ 0xE000EFE0)ROMTbl[0][0]: E000E000, CID: B105E00D, PID: 001BB000 SCS -- CPU_ReadMem(16 bytes @ 0xE0001FF0) -- CPU_ReadMem(16 bytes @ 0xE0001FE0)ROMTbl[0][1]: E0001000, CID: B105E00D, PID: 001BB002 DWT -- CPU_ReadMem(16 bytes @ 0xE0002FF0) -- CPU_ReadMem(16 bytes @ 0xE0002FE0)ROMTbl[0][2]: E0002000, CID: B105E00D, PID: 000BB003 FPB -- CPU_ReadMem(16 bytes @ 0xE0000FF0) -- CPU_ReadMem(16 bytes @ 0xE0000FE0)ROMTbl[0][3]: E0000000, CID: B105E00D, PID: 001BB001 ITM
 -- CPU_ReadMem(16 bytes @ 0xE00FF010) -- CPU_ReadMem(16 bytes @ 0xE0040FF0) -- CPU_ReadMem(16 bytes @ 0xE0040FE0)ROMTbl[0][4]: E0040000, CID: B105900D, PID: 001BB923 TPIU-Lite >0x0D TIF> >0x21 TIF>  returns 0x1BA01477 (0170ms, 0450ms total)
T4038 000:528 JLINK_GetDLLVersion()  returns 61603 (0000ms, 0450ms total)
T4038 000:528 JLINK_CORE_GetFound()  returns 0x30000FF (0000ms, 0450ms total)
T4038 000:528 JLINK_GetDebugInfo(0x100 = JLINKARM_ROM_TABLE_ADDR_INDEX) -- Value=0xE00FF000  returns 0x00 (0000ms, 0450ms total)
T4038 000:535 JLINK_GetDebugInfo(0x100 = JLINKARM_ROM_TABLE_ADDR_INDEX) -- Value=0xE00FF000  returns 0x00 (0000ms, 0450ms total)
T4038 000:535 JLINK_GetDebugInfo(0x101 = JLINKARM_DEBUG_INFO_ETM_ADDR_INDEX) -- Value=0x00000000  returns 0x00 (0000ms, 0450ms total)
T4038 000:535 JLINK_ReadMemEx(0xE0041FF0, 0x0010 Bytes, ..., Flags = 0x02000004) -- CPU_ReadMem(16 bytes @ 0xE0041FF0) - Data: 00 00 00 00 00 00 00 00 00 00 00 00 00 00 00 00  returns 0x10 (0001ms, 0451ms total)
T4038 000:536 JLINK_GetDebugInfo(0x102 = JLINKARM_DEBUG_INFO_MTB_ADDR_INDEX) -- Value=0x00000000  returns 0x00 (0000ms, 0451ms total)
T4038 000:536 JLINK_GetDebugInfo(0x103 = JLINKARM_DEBUG_INFO_TPIU_ADDR_INDEX) -- Value=0xE0040000  returns 0x00 (0000ms, 0451ms total)
T4038 000:536 JLINK_GetDebugInfo(0x104 = JLINKARM_DEBUG_INFO_ITM_ADDR_INDEX) -- Value=0xE0000000  returns 0x00 (0000ms, 0451ms total)
T4038 000:536 JLINK_GetDebugInfo(0x105 = JLINKARM_DEBUG_INFO_DWT_ADDR_INDEX) -- Value=0xE0001000  returns 0x00 (0000ms, 0451ms total)
T4038 000:536 JLINK_GetDebugInfo(0x106 = JLINKARM_DEBUG_INFO_FPB_ADDR_INDEX) -- Value=0xE0002000  returns 0x00 (0000ms, 0451ms total)
T4038 000:536 JLINK_GetDebugInfo(0x107 = JLINKARM_DEBUG_INFO_NVIC_ADDR_INDEX) -- Value=0xE000E000  returns 0x00 (0000ms, 0451ms total)
T4038 000:536 JLINK_GetDebugInfo(0x10C = JLINKARM_DEBUG_INFO_DBG_ADDR_INDEX) -- Value=0xE000EDF0  returns 0x00 (0000ms, 0451ms total)
T4038 000:536 JLINK_ReadMemU32(0xE000ED00, 0x0001 Items, ...) -- CPU_ReadMem(4 bytes @ 0xE000ED00) - Data: 31 C2 1F 41  returns 0x01 (0001ms, 0452ms total)
T4038 000:537 JLINK_GetDebugInfo(0x10F = JLINKARM_DEBUG_INFO_HAS_CORTEX_M_SECURITY_EXT_INDEX) -- Value=0x00000000  returns 0x00 (0000ms, 0452ms total)
T4038 000:537 JLINK_SetResetType(JLINKARM_CM3_RESET_TYPE_NORMAL)  returns JLINKARM_CM3_RESET_TYPE_NORMAL (0000ms, 0452ms total)
T4038 000:537 JLINK_Reset() -- CPU is running -- CPU_WriteMem(4 bytes @ 0xE000EDF0) -- CPU is running -- CPU_WriteMem(4 bytes @ 0xE000EDFC) >0x35 TIF>Setting AIRCR.SYSRESETREQ -- CPU is running -- CPU_WriteMem(4 bytes @ 0xE000ED0C) >0x0D TIF> >0x28 TIF> -- CPU_ReadMem(4 bytes @ 0xE000ED0C) -- CPU_ReadMem(4 bytes @ 0xE000EDF0) -- CPU_ReadMem(4 bytes @ 0xE000EDF0) -- CPU_ReadMem(4 bytes @ 0xE000EDF0) -- CPU is running -- CPU_WriteMem(4 bytes @ 0xE000EDF0) -- CPU is running
 -- CPU_WriteMem(4 bytes @ 0xE000EDFC) -- CPU_ReadMem(4 bytes @ 0xE000EDF0) -- CPU_WriteMem(4 bytes @ 0xE0002000) -- CPU_ReadMem(4 bytes @ 0xE000EDFC) -- CPU_ReadMem(4 bytes @ 0xE0001000) (0080ms, 0532ms total)
T4038 000:617 JLINK_Halt()  returns 0x00 (0000ms, 0532ms total)
T4038 000:617 JLINK_ReadMemU32(0xE000EDF0, 0x0001 Items, ...) -- CPU_ReadMem(4 bytes @ 0xE000EDF0) - Data: 03 00 03 00  returns 0x01 (0001ms, 0533ms total)
T4038 000:618 JLINK_WriteU32(0xE000EDF0, 0xA05F0003) -- CPU_WriteMem(4 bytes @ 0xE000EDF0)  returns 0x00 (0000ms, 0533ms total)
T4038 000:618 JLINK_WriteU32(0xE000EDFC, 0x01000000) -- CPU_WriteMem(4 bytes @ 0xE000EDFC)  returns 0x00 (0001ms, 0534ms total)
T4038 000:650 JLINK_GetHWStatus(...)  returns 0x00 (0001ms, 0535ms total)
T4038 000:674 JLINK_GetNumBPUnits(Type = 0xFFFFFF00)  returns 0x06 (0000ms, 0535ms total)
T4038 000:674 JLINK_GetNumBPUnits(Type = 0xF0)  returns 0x2000 (0000ms, 0535ms total)
T4038 000:674 JLINK_GetNumWPUnits()  returns 0x04 (0000ms, 0535ms total)
T4038 000:698 JLINK_GetSpeed()  returns 0x7D0 (0000ms, 0535ms total)
T4038 000:715 JLINK_ReadMemU32(0xE000E004, 0x0001 Items, ...) -- CPU_ReadMem(4 bytes @ 0xE000E004) - Data: 01 00 00 00  returns 0x01 (0001ms, 0536ms total)
T4038 000:716 JLINK_ReadMemU32(0xE000E004, 0x0001 Items, ...) -- CPU_ReadMem(4 bytes @ 0xE000E004) - Data: 01 00 00 00  returns 0x01 (0000ms, 0536ms total)
T4038 000:716 JLINK_WriteMemEx(0xE0001000, 0x001C Bytes, ..., Flags = 0x02000004) - Data: 01 00 00 00 00 00 00 00 00 00 00 00 00 00 00 00 ... -- CPU_WriteMem(28 bytes @ 0xE0001000)  returns 0x1C (0002ms, 0538ms total)
T4038 000:718 JLINK_Halt()  returns 0x00 (0000ms, 0538ms total)
T4038 000:718 JLINK_IsHalted()  returns TRUE (0000ms, 0538ms total)
T4038 000:740 JLINK_WriteMem(0x20000000, 0x0164 Bytes, ...) - Data: 00 BE 0A E0 0D 78 2D 06 68 40 08 24 40 00 00 D3 ... -- CPU_WriteMem(356 bytes @ 0x20000000)  returns 0x164 (0005ms, 0543ms total)
T4038 000:745 JLINK_WriteReg(R0, 0x08000000)  returns 0x00 (0000ms, 0543ms total)
T4038 000:745 JLINK_WriteReg(R1, 0x00B71B00)  returns 0x00 (0000ms, 0543ms total)
T4038 000:745 JLINK_WriteReg(R2, 0x00000001)  returns 0x00 (0000ms, 0543ms total)
T4038 000:745 JLINK_WriteReg(R3, 0x00000000)  returns 0x00 (0000ms, 0543ms total)
T4038 000:745 JLINK_WriteReg(R4, 0x00000000)  returns 0x00 (0000ms, 0543ms total)
T4038 000:745 JLINK_WriteReg(R5, 0x00000000)  returns 0x00 (0000ms, 0543ms total)
T4038 000:745 JLINK_WriteReg(R6, 0x00000000)  returns 0x00 (0000ms, 0543ms total)
T4038 000:745 JLINK_WriteReg(R7, 0x00000000)  returns 0x00 (0000ms, 0543ms total)
T4038 000:745 JLINK_WriteReg(R8, 0x00000000)  returns 0x00 (0000ms, 0543ms total)
T4038 000:745 JLINK_WriteReg(R9, 0x20000160)  returns 0x00 (0000ms, 0543ms total)
T4038 000:745 JLINK_WriteReg(R10, 0x00000000)  returns 0x00 (0000ms, 0543ms total)
T4038 000:745 JLINK_WriteReg(R11, 0x00000000)  returns 0x00 (0001ms, 0544ms total)
T4038 000:746 JLINK_WriteReg(R12, 0x00000000)  returns 0x00 (0000ms, 0544ms total)
T4038 000:746 JLINK_WriteReg(R13 (SP), 0x20001000)  returns 0x00 (0000ms, 0544ms total)
T4038 000:746 JLINK_WriteReg(R14, 0x20000001)  returns 0x00 (0000ms, 0544ms total)
T4038 000:746 JLINK_WriteReg(R15 (PC), 0x20000038)  returns 0x00 (0000ms, 0544ms total)
T4038 000:746 JLINK_WriteReg(XPSR, 0x01000000)  returns 0x00 (0000ms, 0544ms total)
T4038 000:746 JLINK_WriteReg(MSP, 0x20001000)  returns 0x00 (0000ms, 0544ms total)
T4038 000:746 JLINK_WriteReg(PSP, 0x20001000)  returns 0x00 (0000ms, 0544ms total)
T4038 000:746 JLINK_WriteReg(CFBP, 0x00000000)  returns 0x00 (0000ms, 0544ms total)
T4038 000:746 JLINK_SetBPEx(Addr = 0x20000000, Type = 0xFFFFFFF2) -- CPU_ReadMem(2 bytes @ 0x20000000)  returns 0x00000001 (0001ms, 0545ms total)
T4038 000:747 JLINK_Go() -- CPU_WriteMem(2 bytes @ 0x20000000) -- CPU_ReadMem(4 bytes @ 0xE0001000) -- CPU_WriteMem(4 bytes @ 0xE0002008) -- CPU_WriteMem(4 bytes @ 0xE000200C) -- CPU_WriteMem(4 bytes @ 0xE0002010) -- CPU_WriteMem(4 bytes @ 0xE0002014) -- CPU_WriteMem(4 bytes @ 0xE0002018) -- CPU_WriteMem(4 bytes @ 0xE000201C) -- CPU_WriteMem(4 bytes @ 0xE0001004) (0008ms, 0553ms total)
T4038 000:755 JLINK_IsHalted() -- CPU_ReadMem(2 bytes @ 0x20000000)  returns TRUE (0005ms, 0558ms total)
T4038 000:760 JLINK_ReadReg(R15 (PC))  returns 0x20000000 (0000ms, 0553ms total)
T4038 000:760 JLINK_ClrBPEx(BPHandle = 0x00000001)  returns 0x00 (0000ms, 0553ms total)
T4038 000:760 JLINK_ReadReg(R0)  returns 0x00000000 (0000ms, 0553ms total)
T4038 000:762 JLINK_WriteReg(R0, 0x08000000)  returns 0x00 (0000ms, 0553ms total)
T4038 000:762 JLINK_WriteReg(R1, 0x00B71B00)  returns 0x00 (0000ms, 0553ms total)
T4038 000:762 JLINK_WriteReg(R2, 0x00000001)  returns 0x00 (0000ms, 0553ms total)
T4038 000:762 JLINK_WriteReg(R3, 0x00000000)  returns 0x00 (0001ms, 0554ms total)
T4038 000:763 JLINK_WriteReg(R4, 0x00000000)  returns 0x00 (0000ms, 0554ms total)
T4038 000:763 JLINK_WriteReg(R5, 0x00000000)  returns 0x00 (0000ms, 0554ms total)
T4038 000:763 JLINK_WriteReg(R6, 0x00000000)  returns 0x00 (0000ms, 0554ms total)
T4038 000:763 JLINK_WriteReg(R7, 0x00000000)  returns 0x00 (0000ms, 0554ms total)
T4038 000:763 JLINK_WriteReg(R8, 0x00000000)  returns 0x00 (0000ms, 0554ms total)
T4038 000:763 JLINK_WriteReg(R9, 0x20000160)  returns 0x00 (0000ms, 0554ms total)
T4038 000:763 JLINK_WriteReg(R10, 0x00000000)  returns 0x00 (0000ms, 0554ms total)
T4038 000:763 JLINK_WriteReg(R11, 0x00000000)  returns 0x00 (0000ms, 0554ms total)
T4038 000:763 JLINK_WriteReg(R12, 0x00000000)  returns 0x00 (0000ms, 0554ms total)
T4038 000:763 JLINK_WriteReg(R13 (SP), 0x20001000)  returns 0x00 (0000ms, 0554ms total)
T4038 000:763 JLINK_WriteReg(R14, 0x20000001)  returns 0x00 (0000ms, 0554ms total)
T4038 000:763 JLINK_WriteReg(R15 (PC), 0x2000007C)  returns 0x00 (0000ms, 0554ms total)
T4038 000:763 JLINK_WriteReg(XPSR, 0x01000000)  returns 0x00 (0000ms, 0554ms total)
T4038 000:763 JLINK_WriteReg(MSP, 0x20001000)  returns 0x00 (0000ms, 0554ms total)
T4038 000:763 JLINK_WriteReg(PSP, 0x20001000)  returns 0x00 (0000ms, 0554ms total)
T4038 000:763 JLINK_WriteReg(CFBP, 0x00000000)  returns 0x00 (0000ms, 0554ms total)
T4038 000:763 JLINK_SetBPEx(Addr = 0x20000000, Type = 0xFFFFFFF2)  returns 0x00000002 (0000ms, 0554ms total)
T4038 000:763 JLINK_Go() -- CPU_ReadMem(4 bytes @ 0xE0001000) (0003ms, 0557ms total)
T4038 000:766 JLINK_IsHalted()  returns FALSE (0001ms, 0558ms total)
T4038 000:854 JLINK_IsHalted() -- CPU_ReadMem(2 bytes @ 0x20000000)  returns TRUE (0005ms, 0562ms total)
T4038 000:859 JLINK_ReadReg(R15 (PC))  returns 0x20000000 (0000ms, 0557ms total)
T4038 000:859 JLINK_ClrBPEx(BPHandle = 0x00000002)  returns 0x00 (0000ms, 0557ms total)
T4038 000:859 JLINK_ReadReg(R0)  returns 0x00000000 (0000ms, 0557ms total)
T4038 000:913 JLINK_WriteReg(R0, 0x00000001)  returns 0x00 (0000ms, 0557ms total)
T4038 000:913 JLINK_WriteReg(R1, 0x00B71B00)  returns 0x00 (0000ms, 0557ms total)
T4038 000:913 JLINK_WriteReg(R2, 0x00000001)  returns 0x00 (0000ms, 0557ms total)
T4038 000:913 JLINK_WriteReg(R3, 0x00000000)  returns 0x00 (0000ms, 0557ms total)
T4038 000:913 JLINK_WriteReg(R4, 0x00000000)  returns 0x00 (0000ms, 0557ms total)
T4038 000:913 JLINK_WriteReg(R5, 0x00000000)  returns 0x00 (0000ms, 0557ms total)
T4038 000:913 JLINK_WriteReg(R6, 0x00000000)  returns 0x00 (0000ms, 0557ms total)
T4038 000:913 JLINK_WriteReg(R7, 0x00000000)  returns 0x00 (0000ms, 0557ms total)
T4038 000:913 JLINK_WriteReg(R8, 0x00000000)  returns 0x00 (0000ms, 0557ms total)
T4038 000:913 JLINK_WriteReg(R9, 0x20000160)  returns 0x00 (0000ms, 0557ms total)
T4038 000:913 JLINK_WriteReg(R10, 0x00000000)  returns 0x00 (0000ms, 0557ms total)
T4038 000:913 JLINK_WriteReg(R11, 0x00000000)  returns 0x00 (0000ms, 0557ms total)
T4038 000:913 JLINK_WriteReg(R12, 0x00000000)  returns 0x00 (0000ms, 0557ms total)
T4038 000:913 JLINK_WriteReg(R13 (SP), 0x20001000)  returns 0x00 (0000ms, 0557ms total)
T4038 000:914 JLINK_WriteReg(R14, 0x20000001)  returns 0x00 (0000ms, 0557ms total)
T4038 000:914 JLINK_WriteReg(R15 (PC), 0x2000006A)  returns 0x00 (0000ms, 0557ms total)
T4038 000:914 JLINK_WriteReg(XPSR, 0x01000000)  returns 0x00 (0000ms, 0557ms total)
T4038 000:914 JLINK_WriteReg(MSP, 0x20001000)  returns 0x00 (0000ms, 0557ms total)
T4038 000:914 JLINK_WriteReg(PSP, 0x20001000)  returns 0x00 (0000ms, 0557ms total)
T4038 000:914 JLINK_WriteReg(CFBP, 0x00000000)  returns 0x00 (0000ms, 0557ms total)
T4038 000:914 JLINK_SetBPEx(Addr = 0x20000000, Type = 0xFFFFFFF2)  returns 0x00000003 (0000ms, 0557ms total)
T4038 000:914 JLINK_Go() -- CPU_ReadMem(4 bytes @ 0xE0001000) (0002ms, 0559ms total)
T4038 000:917 JLINK_IsHalted() -- CPU_ReadMem(2 bytes @ 0x20000000)  returns TRUE (0005ms, 0564ms total)
T4038 000:922 JLINK_ReadReg(R15 (PC))  returns 0x20000000 (0000ms, 0559ms total)
T4038 000:922 JLINK_ClrBPEx(BPHandle = 0x00000003)  returns 0x00 (0000ms, 0559ms total)
T4038 000:922 JLINK_ReadReg(R0)  returns 0x00000000 (0000ms, 0559ms total)
T4038 000:938 JLINK_WriteMem(0x20000000, 0x0164 Bytes, ...) - Data: 00 BE 0A E0 0D 78 2D 06 68 40 08 24 40 00 00 D3 ... -- CPU_WriteMem(356 bytes @ 0x20000000)  returns 0x164 (0004ms, 0563ms total)
T4038 000:942 JLINK_WriteReg(R0, 0x08000000)  returns 0x00 (0000ms, 0563ms total)
T4038 000:942 JLINK_WriteReg(R1, 0x00B71B00)  returns 0x00 (0000ms, 0563ms total)
T4038 000:942 JLINK_WriteReg(R2, 0x00000002)  returns 0x00 (0001ms, 0564ms total)
T4038 000:943 JLINK_WriteReg(R3, 0x00000000)  returns 0x00 (0000ms, 0564ms total)
T4038 000:943 JLINK_WriteReg(R4, 0x00000000)  returns 0x00 (0000ms, 0564ms total)
T4038 000:943 JLINK_WriteReg(R5, 0x00000000)  returns 0x00 (0000ms, 0564ms total)
T4038 000:943 JLINK_WriteReg(R6, 0x00000000)  returns 0x00 (0000ms, 0564ms total)
T4038 000:943 JLINK_WriteReg(R7, 0x00000000)  returns 0x00 (0000ms, 0564ms total)
T4038 000:943 JLINK_WriteReg(R8, 0x00000000)  returns 0x00 (0000ms, 0564ms total)
T4038 000:943 JLINK_WriteReg(R9, 0x20000160)  returns 0x00 (0000ms, 0564ms total)
T4038 000:943 JLINK_WriteReg(R10, 0x00000000)  returns 0x00 (0000ms, 0564ms total)
T4038 000:943 JLINK_WriteReg(R11, 0x00000000)  returns 0x00 (0000ms, 0564ms total)
T4038 000:943 JLINK_WriteReg(R12, 0x00000000)  returns 0x00 (0000ms, 0564ms total)
T4038 000:943 JLINK_WriteReg(R13 (SP), 0x20001000)  returns 0x00 (0000ms, 0564ms total)
T4038 000:943 JLINK_WriteReg(R14, 0x20000001)  returns 0x00 (0000ms, 0564ms total)
T4038 000:943 JLINK_WriteReg(R15 (PC), 0x20000038)  returns 0x00 (0000ms, 0564ms total)
T4038 000:943 JLINK_WriteReg(XPSR, 0x01000000)  returns 0x00 (0000ms, 0564ms total)
T4038 000:943 JLINK_WriteReg(MSP, 0x20001000)  returns 0x00 (0000ms, 0564ms total)
T4038 000:943 JLINK_WriteReg(PSP, 0x20001000)  returns 0x00 (0000ms, 0564ms total)
T4038 000:943 JLINK_WriteReg(CFBP, 0x00000000)  returns 0x00 (0000ms, 0564ms total)
T4038 000:943 JLINK_SetBPEx(Addr = 0x20000000, Type = 0xFFFFFFF2) -- CPU_ReadMem(2 bytes @ 0x20000000)  returns 0x00000004 (0001ms, 0565ms total)
T4038 000:944 JLINK_Go() -- CPU_WriteMem(2 bytes @ 0x20000000) -- CPU_ReadMem(4 bytes @ 0xE0001000) (0003ms, 0568ms total)
T4038 000:948 JLINK_IsHalted() -- CPU_ReadMem(2 bytes @ 0x20000000)  returns TRUE (0005ms, 0573ms total)
T4038 000:953 JLINK_ReadReg(R15 (PC))  returns 0x20000000 (0000ms, 0568ms total)
T4038 000:953 JLINK_ClrBPEx(BPHandle = 0x00000004)  returns 0x00 (0000ms, 0568ms total)
T4038 000:953 JLINK_ReadReg(R0)  returns 0x00000000 (0000ms, 0568ms total)
T4038 000:954 JLINK_WriteMem(0x20000164, 0x029C Bytes, ...) - Data: E0 07 00 20 A9 12 00 08 B5 02 00 08 B7 02 00 08 ... -- CPU_WriteMem(668 bytes @ 0x20000164)  returns 0x29C (0007ms, 0575ms total)
T4038 000:961 JLINK_WriteMem(0x20000400, 0x0164 Bytes, ...) - Data: C6 FC 10 BD 00 00 C0 40 00 00 60 40 44 20 25 2E ... -- CPU_WriteMem(356 bytes @ 0x20000400)  returns 0x164 (0004ms, 0579ms total)
T4038 000:965 JLINK_WriteReg(R0, 0x08000000)  returns 0x00 (0000ms, 0579ms total)
T4038 000:965 JLINK_WriteReg(R1, 0x00000400)  returns 0x00 (0000ms, 0579ms total)
T4038 000:965 JLINK_WriteReg(R2, 0x20000164)  returns 0x00 (0000ms, 0579ms total)
T4038 000:965 JLINK_WriteReg(R3, 0x00000000)  returns 0x00 (0000ms, 0579ms total)
T4038 000:965 JLINK_WriteReg(R4, 0x00000000)  returns 0x00 (0000ms, 0579ms total)
T4038 000:966 JLINK_WriteReg(R5, 0x00000000)  returns 0x00 (0000ms, 0580ms total)
T4038 000:966 JLINK_WriteReg(R6, 0x00000000)  returns 0x00 (0000ms, 0580ms total)
T4038 000:966 JLINK_WriteReg(R7, 0x00000000)  returns 0x00 (0000ms, 0580ms total)
T4038 000:966 JLINK_WriteReg(R8, 0x00000000)  returns 0x00 (0000ms, 0580ms total)
T4038 000:966 JLINK_WriteReg(R9, 0x20000160)  returns 0x00 (0000ms, 0580ms total)
T4038 000:966 JLINK_WriteReg(R10, 0x00000000)  returns 0x00 (0000ms, 0580ms total)
T4038 000:966 JLINK_WriteReg(R11, 0x00000000)  returns 0x00 (0000ms, 0580ms total)
T4038 000:966 JLINK_WriteReg(R12, 0x00000000)  returns 0x00 (0000ms, 0580ms total)
T4038 000:966 JLINK_WriteReg(R13 (SP), 0x20001000)  returns 0x00 (0000ms, 0580ms total)
T4038 000:966 JLINK_WriteReg(R14, 0x20000001)  returns 0x00 (0000ms, 0580ms total)
T4038 000:966 JLINK_WriteReg(R15 (PC), 0x200000F4)  returns 0x00 (0000ms, 0580ms total)
T4038 000:966 JLINK_WriteReg(XPSR, 0x01000000)  returns 0x00 (0000ms, 0580ms total)
T4038 000:966 JLINK_WriteReg(MSP, 0x20001000)  returns 0x00 (0000ms, 0580ms total)
T4038 000:966 JLINK_WriteReg(PSP, 0x20001000)  returns 0x00 (0000ms, 0580ms total)
T4038 000:966 JLINK_WriteReg(CFBP, 0x00000000)  returns 0x00 (0000ms, 0580ms total)
T4038 000:966 JLINK_SetBPEx(Addr = 0x20000000, Type = 0xFFFFFFF2)  returns 0x00000005 (0000ms, 0580ms total)
T4038 000:966 JLINK_Go() -- CPU_ReadMem(4 bytes @ 0xE0001000) (0003ms, 0583ms total)
T4038 000:969 JLINK_IsHalted()  returns FALSE (0001ms, 0584ms total)
T4038 000:980 JLINK_IsHalted()  returns FALSE (0000ms, 0583ms total)
T4038 000:982 JLINK_IsHalted()  returns FALSE (0000ms, 0583ms total)
T4038 000:984 JLINK_IsHalted()  returns FALSE (0000ms, 0583ms total)
T4038 000:986 JLINK_IsHalted()  returns FALSE (0000ms, 0583ms total)
T4038 000:988 JLINK_IsHalted()  returns FALSE (0000ms, 0583ms total)
T4038 000:990 JLINK_IsHalted()  returns FALSE (0000ms, 0583ms total)
T4038 000:992 JLINK_IsHalted()  returns FALSE (0000ms, 0583ms total)
T4038 000:996 JLINK_IsHalted()  returns FALSE (0000ms, 0583ms total)
T4038 000:998 JLINK_IsHalted()  returns FALSE (0000ms, 0583ms total)
T4038 001:000 JLINK_IsHalted() -- CPU_ReadMem(2 bytes @ 0x20000000)  returns TRUE (0005ms, 0588ms total)
T4038 001:005 JLINK_ReadReg(R15 (PC))  returns 0x20000000 (0000ms, 0583ms total)
T4038 001:005 JLINK_ClrBPEx(BPHandle = 0x00000005)  returns 0x00 (0000ms, 0583ms total)
T4038 001:005 JLINK_ReadReg(R0)  returns 0x00000000 (0000ms, 0583ms total)
T4038 001:006 JLINK_WriteMem(0x20000164, 0x029C Bytes, ...) - Data: 00 20 00 22 21 4B 5B 68 03 F0 0C 01 21 B1 04 29 ... -- CPU_WriteMem(668 bytes @ 0x20000164)  returns 0x29C (0007ms, 0590ms total)
T4038 001:013 JLINK_WriteMem(0x20000400, 0x0164 Bytes, ...) - Data: 00 20 BD E8 F0 87 40 F2 B4 50 86 42 00 DD 06 46 ... -- CPU_WriteMem(356 bytes @ 0x20000400)  returns 0x164 (0005ms, 0595ms total)
T4038 001:018 JLINK_WriteReg(R0, 0x08000400)  returns 0x00 (0000ms, 0595ms total)
T4038 001:018 JLINK_WriteReg(R1, 0x00000400)  returns 0x00 (0000ms, 0595ms total)
T4038 001:018 JLINK_WriteReg(R2, 0x20000164)  returns 0x00 (0000ms, 0595ms total)
T4038 001:018 JLINK_WriteReg(R3, 0x00000000)  returns 0x00 (0000ms, 0595ms total)
T4038 001:018 JLINK_WriteReg(R4, 0x00000000)  returns 0x00 (0000ms, 0595ms total)
T4038 001:018 JLINK_WriteReg(R5, 0x00000000)  returns 0x00 (0000ms, 0595ms total)
T4038 001:018 JLINK_WriteReg(R6, 0x00000000)  returns 0x00 (0000ms, 0595ms total)
T4038 001:018 JLINK_WriteReg(R7, 0x00000000)  returns 0x00 (0000ms, 0595ms total)
T4038 001:018 JLINK_WriteReg(R8, 0x00000000)  returns 0x00 (0000ms, 0595ms total)
T4038 001:018 JLINK_WriteReg(R9, 0x20000160)  returns 0x00 (0000ms, 0595ms total)
T4038 001:018 JLINK_WriteReg(R10, 0x00000000)  returns 0x00 (0000ms, 0595ms total)
T4038 001:018 JLINK_WriteReg(R11, 0x00000000)  returns 0x00 (0000ms, 0595ms total)
T4038 001:018 JLINK_WriteReg(R12, 0x00000000)  returns 0x00 (0000ms, 0595ms total)
T4038 001:018 JLINK_WriteReg(R13 (SP), 0x20001000)  returns 0x00 (0000ms, 0595ms total)
T4038 001:018 JLINK_WriteReg(R14, 0x20000001)  returns 0x00 (0000ms, 0595ms total)
T4038 001:018 JLINK_WriteReg(R15 (PC), 0x200000F4)  returns 0x00 (0000ms, 0595ms total)
T4038 001:018 JLINK_WriteReg(XPSR, 0x01000000)  returns 0x00 (0000ms, 0595ms total)
T4038 001:018 JLINK_WriteReg(MSP, 0x20001000)  returns 0x00 (0000ms, 0595ms total)
T4038 001:018 JLINK_WriteReg(PSP, 0x20001000)  returns 0x00 (0000ms, 0595ms total)
T4038 001:018 JLINK_WriteReg(CFBP, 0x00000000)  returns 0x00 (0000ms, 0595ms total)
T4038 001:018 JLINK_SetBPEx(Addr = 0x20000000, Type = 0xFFFFFFF2)  returns 0x00000006 (0000ms, 0595ms total)
T4038 001:019 JLINK_Go() -- CPU_ReadMem(4 bytes @ 0xE0001000) (0002ms, 0597ms total)
T4038 001:021 JLINK_IsHalted()  returns FALSE (0001ms, 0598ms total)
T4038 001:029 JLINK_IsHalted()  returns FALSE (0000ms, 0597ms total)
T4038 001:031 JLINK_IsHalted()  returns FALSE (0000ms, 0597ms total)
T4038 001:033 JLINK_IsHalted()  returns FALSE (0000ms, 0597ms total)
T4038 001:035 JLINK_IsHalted()  returns FALSE (0000ms, 0597ms total)
T4038 001:037 JLINK_IsHalted()  returns FALSE (0000ms, 0597ms total)
T4038 001:039 JLINK_IsHalted()  returns FALSE (0000ms, 0597ms total)
T4038 001:041 JLINK_IsHalted()  returns FALSE (0000ms, 0597ms total)
T4038 001:043 JLINK_IsHalted()  returns FALSE (0000ms, 0597ms total)
T4038 001:045 JLINK_IsHalted()  returns FALSE (0000ms, 0597ms total)
T4038 001:047 JLINK_IsHalted()  returns FALSE (0000ms, 0597ms total)
T4038 001:049 JLINK_IsHalted()  returns FALSE (0000ms, 0597ms total)
T4038 001:051 JLINK_IsHalted()  returns FALSE (0000ms, 0597ms total)
T4038 001:055 JLINK_IsHalted() -- CPU_ReadMem(2 bytes @ 0x20000000)  returns TRUE (0005ms, 0602ms total)
T4038 001:060 JLINK_ReadReg(R15 (PC))  returns 0x20000000 (0000ms, 0597ms total)
T4038 001:060 JLINK_ClrBPEx(BPHandle = 0x00000006)  returns 0x00 (0000ms, 0597ms total)
T4038 001:060 JLINK_ReadReg(R0)  returns 0x00000000 (0000ms, 0597ms total)
T4038 001:063 JLINK_WriteMem(0x20000164, 0x029C Bytes, ...) - Data: 12 21 00 20 FF F7 F6 FE 08 2C 26 D2 DF E8 04 F0 ... -- CPU_WriteMem(668 bytes @ 0x20000164)  returns 0x29C (0007ms, 0604ms total)
T4038 001:070 JLINK_WriteMem(0x20000400, 0x0164 Bytes, ...) - Data: 0C 46 10 21 9C 48 00 F0 30 FD 28 46 FF F7 5E FD ... -- CPU_WriteMem(356 bytes @ 0x20000400)  returns 0x164 (0004ms, 0608ms total)
T4038 001:075 JLINK_WriteReg(R0, 0x08000800)  returns 0x00 (0000ms, 0608ms total)
T4038 001:075 JLINK_WriteReg(R1, 0x00000400)  returns 0x00 (0000ms, 0608ms total)
T4038 001:075 JLINK_WriteReg(R2, 0x20000164)  returns 0x00 (0000ms, 0608ms total)
T4038 001:075 JLINK_WriteReg(R3, 0x00000000)  returns 0x00 (0000ms, 0608ms total)
T4038 001:075 JLINK_WriteReg(R4, 0x00000000)  returns 0x00 (0000ms, 0608ms total)
T4038 001:075 JLINK_WriteReg(R5, 0x00000000)  returns 0x00 (0000ms, 0608ms total)
T4038 001:075 JLINK_WriteReg(R6, 0x00000000)  returns 0x00 (0000ms, 0608ms total)
T4038 001:075 JLINK_WriteReg(R7, 0x00000000)  returns 0x00 (0000ms, 0608ms total)
T4038 001:075 JLINK_WriteReg(R8, 0x00000000)  returns 0x00 (0000ms, 0608ms total)
T4038 001:075 JLINK_WriteReg(R9, 0x20000160)  returns 0x00 (0000ms, 0608ms total)
T4038 001:075 JLINK_WriteReg(R10, 0x00000000)  returns 0x00 (0000ms, 0608ms total)
T4038 001:075 JLINK_WriteReg(R11, 0x00000000)  returns 0x00 (0000ms, 0608ms total)
T4038 001:075 JLINK_WriteReg(R12, 0x00000000)  returns 0x00 (0000ms, 0608ms total)
T4038 001:075 JLINK_WriteReg(R13 (SP), 0x20001000)  returns 0x00 (0000ms, 0608ms total)
T4038 001:075 JLINK_WriteReg(R14, 0x20000001)  returns 0x00 (0000ms, 0608ms total)
T4038 001:075 JLINK_WriteReg(R15 (PC), 0x200000F4)  returns 0x00 (0000ms, 0608ms total)
T4038 001:075 JLINK_WriteReg(XPSR, 0x01000000)  returns 0x00 (0000ms, 0608ms total)
T4038 001:075 JLINK_WriteReg(MSP, 0x20001000)  returns 0x00 (0001ms, 0609ms total)
T4038 001:076 JLINK_WriteReg(PSP, 0x20001000)  returns 0x00 (0000ms, 0609ms total)
T4038 001:076 JLINK_WriteReg(CFBP, 0x00000000)  returns 0x00 (0000ms, 0609ms total)
T4038 001:076 JLINK_SetBPEx(Addr = 0x20000000, Type = 0xFFFFFFF2)  returns 0x00000007 (0000ms, 0609ms total)
T4038 001:076 JLINK_Go() -- CPU_ReadMem(4 bytes @ 0xE0001000) (0003ms, 0612ms total)
T4038 001:079 JLINK_IsHalted()  returns FALSE (0000ms, 0612ms total)
T4038 001:082 JLINK_IsHalted()  returns FALSE (0000ms, 0612ms total)
T4038 001:084 JLINK_IsHalted()  returns FALSE (0000ms, 0612ms total)
T4038 001:086 JLINK_IsHalted()  returns FALSE (0000ms, 0612ms total)
T4038 001:089 JLINK_IsHalted()  returns FALSE (0000ms, 0612ms total)
T4038 001:091 JLINK_IsHalted()  returns FALSE (0000ms, 0612ms total)
T4038 001:093 JLINK_IsHalted()  returns FALSE (0000ms, 0612ms total)
T4038 001:095 JLINK_IsHalted()  returns FALSE (0000ms, 0612ms total)
T4038 001:098 JLINK_IsHalted()  returns FALSE (0000ms, 0612ms total)
T4038 001:100 JLINK_IsHalted()  returns FALSE (0000ms, 0612ms total)
T4038 001:103 JLINK_IsHalted()  returns FALSE (0000ms, 0612ms total)
T4038 001:105 JLINK_IsHalted()  returns FALSE (0000ms, 0612ms total)
T4038 001:108 JLINK_IsHalted()  returns FALSE (0000ms, 0612ms total)
T4038 001:110 JLINK_IsHalted() -- CPU_ReadMem(2 bytes @ 0x20000000)  returns TRUE (0005ms, 0617ms total)
T4038 001:115 JLINK_ReadReg(R15 (PC))  returns 0x20000000 (0000ms, 0612ms total)
T4038 001:115 JLINK_ClrBPEx(BPHandle = 0x00000007)  returns 0x00 (0000ms, 0612ms total)
T4038 001:115 JLINK_ReadReg(R0)  returns 0x00000000 (0000ms, 0612ms total)
T4038 001:117 JLINK_WriteMem(0x20000164, 0x029C Bytes, ...) - Data: F7 DB 10 21 43 48 00 F0 7C FC 09 EB 08 00 1F FA ... -- CPU_WriteMem(668 bytes @ 0x20000164)  returns 0x29C (0008ms, 0620ms total)
T4038 001:125 JLINK_WriteMem(0x20000400, 0x0164 Bytes, ...) - Data: 90 FB FF 20 D6 E7 DC E7 10 B5 04 46 01 22 00 21 ... -- CPU_WriteMem(356 bytes @ 0x20000400)  returns 0x164 (0004ms, 0624ms total)
T4038 001:129 JLINK_WriteReg(R0, 0x08000C00)  returns 0x00 (0000ms, 0624ms total)
T4038 001:129 JLINK_WriteReg(R1, 0x00000400)  returns 0x00 (0000ms, 0624ms total)
T4038 001:129 JLINK_WriteReg(R2, 0x20000164)  returns 0x00 (0000ms, 0624ms total)
T4038 001:129 JLINK_WriteReg(R3, 0x00000000)  returns 0x00 (0000ms, 0624ms total)
T4038 001:129 JLINK_WriteReg(R4, 0x00000000)  returns 0x00 (0000ms, 0624ms total)
T4038 001:129 JLINK_WriteReg(R5, 0x00000000)  returns 0x00 (0000ms, 0624ms total)
T4038 001:129 JLINK_WriteReg(R6, 0x00000000)  returns 0x00 (0000ms, 0624ms total)
T4038 001:129 JLINK_WriteReg(R7, 0x00000000)  returns 0x00 (0001ms, 0625ms total)
T4038 001:130 JLINK_WriteReg(R8, 0x00000000)  returns 0x00 (0000ms, 0625ms total)
T4038 001:130 JLINK_WriteReg(R9, 0x20000160)  returns 0x00 (0000ms, 0625ms total)
T4038 001:130 JLINK_WriteReg(R10, 0x00000000)  returns 0x00 (0000ms, 0625ms total)
T4038 001:130 JLINK_WriteReg(R11, 0x00000000)  returns 0x00 (0000ms, 0625ms total)
T4038 001:130 JLINK_WriteReg(R12, 0x00000000)  returns 0x00 (0000ms, 0625ms total)
T4038 001:130 JLINK_WriteReg(R13 (SP), 0x20001000)  returns 0x00 (0000ms, 0625ms total)
T4038 001:130 JLINK_WriteReg(R14, 0x20000001)  returns 0x00 (0000ms, 0625ms total)
T4038 001:130 JLINK_WriteReg(R15 (PC), 0x200000F4)  returns 0x00 (0000ms, 0625ms total)
T4038 001:130 JLINK_WriteReg(XPSR, 0x01000000)  returns 0x00 (0000ms, 0625ms total)
T4038 001:130 JLINK_WriteReg(MSP, 0x20001000)  returns 0x00 (0000ms, 0625ms total)
T4038 001:130 JLINK_WriteReg(PSP, 0x20001000)  returns 0x00 (0000ms, 0625ms total)
T4038 001:130 JLINK_WriteReg(CFBP, 0x00000000)  returns 0x00 (0000ms, 0625ms total)
T4038 001:130 JLINK_SetBPEx(Addr = 0x20000000, Type = 0xFFFFFFF2)  returns 0x00000008 (0000ms, 0625ms total)
T4038 001:130 JLINK_Go() -- CPU_ReadMem(4 bytes @ 0xE0001000) (0003ms, 0628ms total)
T4038 001:133 JLINK_IsHalted()  returns FALSE (0001ms, 0629ms total)
T4038 001:139 JLINK_IsHalted()  returns FALSE (0000ms, 0628ms total)
T4038 001:141 JLINK_IsHalted()  returns FALSE (0000ms, 0628ms total)
T4038 001:144 JLINK_IsHalted()  returns FALSE (0000ms, 0628ms total)
T4038 001:146 JLINK_IsHalted()  returns FALSE (0000ms, 0628ms total)
T4038 001:149 JLINK_IsHalted()  returns FALSE (0000ms, 0628ms total)
T4038 001:151 JLINK_IsHalted()  returns FALSE (0000ms, 0628ms total)
T4038 001:153 JLINK_IsHalted()  returns FALSE (0000ms, 0628ms total)
T4038 001:155 JLINK_IsHalted()  returns FALSE (0000ms, 0628ms total)
T4038 001:158 JLINK_IsHalted()  returns FALSE (0000ms, 0628ms total)
T4038 001:160 JLINK_IsHalted()  returns FALSE (0000ms, 0628ms total)
T4038 001:162 JLINK_IsHalted()  returns FALSE (0000ms, 0628ms total)
T4038 001:164 JLINK_IsHalted() -- CPU_ReadMem(2 bytes @ 0x20000000)  returns TRUE (0005ms, 0633ms total)
T4038 001:169 JLINK_ReadReg(R15 (PC))  returns 0x20000000 (0000ms, 0628ms total)
T4038 001:169 JLINK_ClrBPEx(BPHandle = 0x00000008)  returns 0x00 (0000ms, 0628ms total)
T4038 001:169 JLINK_ReadReg(R0)  returns 0x00000000 (0000ms, 0628ms total)
T4038 001:171 JLINK_WriteMem(0x20000164, 0x029C Bytes, ...) - Data: 36 49 08 70 02 E0 00 20 34 49 08 70 10 BD C0 20 ... -- CPU_WriteMem(668 bytes @ 0x20000164)  returns 0x29C (0007ms, 0635ms total)
T4038 001:178 JLINK_WriteMem(0x20000400, 0x0164 Bytes, ...) - Data: 10 BD 00 00 00 38 01 40 00 08 01 40 09 48 80 47 ... -- CPU_WriteMem(356 bytes @ 0x20000400)  returns 0x164 (0005ms, 0640ms total)
T4038 001:183 JLINK_WriteReg(R0, 0x08001000)  returns 0x00 (0000ms, 0640ms total)
T4038 001:183 JLINK_WriteReg(R1, 0x00000400)  returns 0x00 (0000ms, 0640ms total)
T4038 001:183 JLINK_WriteReg(R2, 0x20000164)  returns 0x00 (0000ms, 0640ms total)
T4038 001:183 JLINK_WriteReg(R3, 0x00000000)  returns 0x00 (0000ms, 0640ms total)
T4038 001:183 JLINK_WriteReg(R4, 0x00000000)  returns 0x00 (0000ms, 0640ms total)
T4038 001:183 JLINK_WriteReg(R5, 0x00000000)  returns 0x00 (0000ms, 0640ms total)
T4038 001:183 JLINK_WriteReg(R6, 0x00000000)  returns 0x00 (0000ms, 0640ms total)
T4038 001:183 JLINK_WriteReg(R7, 0x00000000)  returns 0x00 (0000ms, 0640ms total)
T4038 001:183 JLINK_WriteReg(R8, 0x00000000)  returns 0x00 (0000ms, 0640ms total)
T4038 001:183 JLINK_WriteReg(R9, 0x20000160)  returns 0x00 (0000ms, 0640ms total)
T4038 001:183 JLINK_WriteReg(R10, 0x00000000)  returns 0x00 (0000ms, 0640ms total)
T4038 001:183 JLINK_WriteReg(R11, 0x00000000)  returns 0x00 (0000ms, 0640ms total)
T4038 001:183 JLINK_WriteReg(R12, 0x00000000)  returns 0x00 (0000ms, 0640ms total)
T4038 001:183 JLINK_WriteReg(R13 (SP), 0x20001000)  returns 0x00 (0000ms, 0640ms total)
T4038 001:184 JLINK_WriteReg(R14, 0x20000001)  returns 0x00 (0000ms, 0641ms total)
T4038 001:184 JLINK_WriteReg(R15 (PC), 0x200000F4)  returns 0x00 (0000ms, 0641ms total)
T4038 001:184 JLINK_WriteReg(XPSR, 0x01000000)  returns 0x00 (0000ms, 0641ms total)
T4038 001:184 JLINK_WriteReg(MSP, 0x20001000)  returns 0x00 (0000ms, 0641ms total)
T4038 001:184 JLINK_WriteReg(PSP, 0x20001000)  returns 0x00 (0000ms, 0641ms total)
T4038 001:184 JLINK_WriteReg(CFBP, 0x00000000)  returns 0x00 (0000ms, 0641ms total)
T4038 001:184 JLINK_SetBPEx(Addr = 0x20000000, Type = 0xFFFFFFF2)  returns 0x00000009 (0000ms, 0641ms total)
T4038 001:184 JLINK_Go() -- CPU_ReadMem(4 bytes @ 0xE0001000) (0003ms, 0644ms total)
T4038 001:187 JLINK_IsHalted()  returns FALSE (0001ms, 0645ms total)
T4038 001:193 JLINK_IsHalted()  returns FALSE (0000ms, 0644ms total)
T4038 001:195 JLINK_IsHalted()  returns FALSE (0000ms, 0644ms total)
T4038 001:197 JLINK_IsHalted()  returns FALSE (0000ms, 0644ms total)
T4038 001:199 JLINK_IsHalted()  returns FALSE (0000ms, 0644ms total)
T4038 001:201 JLINK_IsHalted()  returns FALSE (0000ms, 0644ms total)
T4038 001:203 JLINK_IsHalted()  returns FALSE (0000ms, 0644ms total)
T4038 001:205 JLINK_IsHalted()  returns FALSE (0000ms, 0644ms total)
T4038 001:207 JLINK_IsHalted()  returns FALSE (0000ms, 0644ms total)
T4038 001:209 JLINK_IsHalted()  returns FALSE (0000ms, 0644ms total)
T4038 001:211 JLINK_IsHalted()  returns FALSE (0001ms, 0645ms total)
T4038 001:214 JLINK_IsHalted()  returns FALSE (0000ms, 0644ms total)
T4038 001:216 JLINK_IsHalted()  returns FALSE (0000ms, 0644ms total)
T4038 001:219 JLINK_IsHalted() -- CPU_ReadMem(2 bytes @ 0x20000000)  returns TRUE (0005ms, 0649ms total)
T4038 001:224 JLINK_ReadReg(R15 (PC))  returns 0x20000000 (0000ms, 0644ms total)
T4038 001:224 JLINK_ClrBPEx(BPHandle = 0x00000009)  returns 0x00 (0000ms, 0644ms total)
T4038 001:224 JLINK_ReadReg(R0)  returns 0x00000000 (0000ms, 0644ms total)
T4038 001:226 JLINK_WriteMem(0x20000164, 0x029C Bytes, ...) - Data: 0F 0C 0C FA 03 F7 BC 43 05 FA 03 FC 4C EA 04 04 ... -- CPU_WriteMem(668 bytes @ 0x20000164)  returns 0x29C (0007ms, 0651ms total)
T4038 001:233 JLINK_WriteMem(0x20000400, 0x0164 Bytes, ...) - Data: 80 3F 03 D0 B0 F5 80 2F 0E D1 06 E0 C6 49 09 68 ... -- CPU_WriteMem(356 bytes @ 0x20000400)  returns 0x164 (0004ms, 0655ms total)
T4038 001:237 JLINK_WriteReg(R0, 0x08001400)  returns 0x00 (0001ms, 0656ms total)
T4038 001:238 JLINK_WriteReg(R1, 0x00000400)  returns 0x00 (0000ms, 0656ms total)
T4038 001:238 JLINK_WriteReg(R2, 0x20000164)  returns 0x00 (0000ms, 0656ms total)
T4038 001:238 JLINK_WriteReg(R3, 0x00000000)  returns 0x00 (0000ms, 0656ms total)
T4038 001:238 JLINK_WriteReg(R4, 0x00000000)  returns 0x00 (0000ms, 0656ms total)
T4038 001:238 JLINK_WriteReg(R5, 0x00000000)  returns 0x00 (0000ms, 0656ms total)
T4038 001:238 JLINK_WriteReg(R6, 0x00000000)  returns 0x00 (0000ms, 0656ms total)
T4038 001:238 JLINK_WriteReg(R7, 0x00000000)  returns 0x00 (0000ms, 0656ms total)
T4038 001:238 JLINK_WriteReg(R8, 0x00000000)  returns 0x00 (0000ms, 0656ms total)
T4038 001:238 JLINK_WriteReg(R9, 0x20000160)  returns 0x00 (0000ms, 0656ms total)
T4038 001:238 JLINK_WriteReg(R10, 0x00000000)  returns 0x00 (0000ms, 0656ms total)
T4038 001:238 JLINK_WriteReg(R11, 0x00000000)  returns 0x00 (0000ms, 0656ms total)
T4038 001:238 JLINK_WriteReg(R12, 0x00000000)  returns 0x00 (0000ms, 0656ms total)
T4038 001:238 JLINK_WriteReg(R13 (SP), 0x20001000)  returns 0x00 (0000ms, 0656ms total)
T4038 001:238 JLINK_WriteReg(R14, 0x20000001)  returns 0x00 (0000ms, 0656ms total)
T4038 001:238 JLINK_WriteReg(R15 (PC), 0x200000F4)  returns 0x00 (0000ms, 0656ms total)
T4038 001:238 JLINK_WriteReg(XPSR, 0x01000000)  returns 0x00 (0000ms, 0656ms total)
T4038 001:238 JLINK_WriteReg(MSP, 0x20001000)  returns 0x00 (0000ms, 0656ms total)
T4038 001:238 JLINK_WriteReg(PSP, 0x20001000)  returns 0x00 (0001ms, 0657ms total)
T4038 001:239 JLINK_WriteReg(CFBP, 0x00000000)  returns 0x00 (0000ms, 0657ms total)
T4038 001:239 JLINK_SetBPEx(Addr = 0x20000000, Type = 0xFFFFFFF2)  returns 0x0000000A (0000ms, 0657ms total)
T4038 001:239 JLINK_Go() -- CPU_ReadMem(4 bytes @ 0xE0001000) (0003ms, 0660ms total)
T4038 001:242 JLINK_IsHalted()  returns FALSE (0000ms, 0660ms total)
T4038 001:705 JLINK_IsHalted() -- CPU_ReadMem(2 bytes @ 0x20000000)  returns TRUE (0005ms, 0665ms total)
T4038 001:710 JLINK_ReadReg(R15 (PC))  returns 0x20000000 (0000ms, 0660ms total)
T4038 001:710 JLINK_ClrBPEx(BPHandle = 0x0000000A)  returns 0x00 (0000ms, 0660ms total)
T4038 001:710 JLINK_ReadReg(R0)  returns 0x00000000 (0000ms, 0660ms total)
T4038 001:711 JLINK_WriteMem(0x20000164, 0x029C Bytes, ...) - Data: 11 70 70 4A 82 F8 20 10 01 28 02 D0 04 28 0A D1 ... -- CPU_WriteMem(668 bytes @ 0x20000164)  returns 0x29C (0007ms, 0667ms total)
T4038 001:718 JLINK_WriteMem(0x20000400, 0x0164 Bytes, ...) - Data: F3 10 04 40 B0 88 31 89 08 43 71 89 08 43 04 43 ... -- CPU_WriteMem(356 bytes @ 0x20000400)  returns 0x164 (0005ms, 0672ms total)
T4038 001:723 JLINK_WriteReg(R0, 0x08001800)  returns 0x00 (0000ms, 0672ms total)
T4038 001:723 JLINK_WriteReg(R1, 0x00000400)  returns 0x00 (0000ms, 0672ms total)
T4038 001:723 JLINK_WriteReg(R2, 0x20000164)  returns 0x00 (0000ms, 0672ms total)
T4038 001:723 JLINK_WriteReg(R3, 0x00000000)  returns 0x00 (0000ms, 0672ms total)
T4038 001:723 JLINK_WriteReg(R4, 0x00000000)  returns 0x00 (0000ms, 0672ms total)
T4038 001:723 JLINK_WriteReg(R5, 0x00000000)  returns 0x00 (0000ms, 0672ms total)
T4038 001:723 JLINK_WriteReg(R6, 0x00000000)  returns 0x00 (0000ms, 0672ms total)
T4038 001:723 JLINK_WriteReg(R7, 0x00000000)  returns 0x00 (0000ms, 0672ms total)
T4038 001:723 JLINK_WriteReg(R8, 0x00000000)  returns 0x00 (0000ms, 0672ms total)
T4038 001:723 JLINK_WriteReg(R9, 0x20000160)  returns 0x00 (0000ms, 0672ms total)
T4038 001:723 JLINK_WriteReg(R10, 0x00000000)  returns 0x00 (0000ms, 0672ms total)
T4038 001:723 JLINK_WriteReg(R11, 0x00000000)  returns 0x00 (0000ms, 0672ms total)
T4038 001:723 JLINK_WriteReg(R12, 0x00000000)  returns 0x00 (0000ms, 0672ms total)
T4038 001:723 JLINK_WriteReg(R13 (SP), 0x20001000)  returns 0x00 (0000ms, 0672ms total)
T4038 001:723 JLINK_WriteReg(R14, 0x20000001)  returns 0x00 (0000ms, 0672ms total)
T4038 001:723 JLINK_WriteReg(R15 (PC), 0x200000F4)  returns 0x00 (0000ms, 0672ms total)
T4038 001:723 JLINK_WriteReg(XPSR, 0x01000000)  returns 0x00 (0000ms, 0672ms total)
T4038 001:723 JLINK_WriteReg(MSP, 0x20001000)  returns 0x00 (0000ms, 0672ms total)
T4038 001:723 JLINK_WriteReg(PSP, 0x20001000)  returns 0x00 (0000ms, 0672ms total)
T4038 001:723 JLINK_WriteReg(CFBP, 0x00000000)  returns 0x00 (0000ms, 0672ms total)
T4038 001:723 JLINK_SetBPEx(Addr = 0x20000000, Type = 0xFFFFFFF2)  returns 0x0000000B (0000ms, 0672ms total)
T4038 001:723 JLINK_Go() -- CPU_ReadMem(4 bytes @ 0xE0001000) (0003ms, 0675ms total)
T4038 001:727 JLINK_IsHalted()  returns FALSE (0000ms, 0675ms total)
T4038 001:729 JLINK_IsHalted()  returns FALSE (0000ms, 0675ms total)
T4038 001:731 JLINK_IsHalted()  returns FALSE (0000ms, 0675ms total)
T4038 001:733 JLINK_IsHalted()  returns FALSE (0000ms, 0675ms total)
T4038 001:735 JLINK_IsHalted()  returns FALSE (0000ms, 0675ms total)
T4038 001:737 JLINK_IsHalted()  returns FALSE (0000ms, 0675ms total)
T4038 001:739 JLINK_IsHalted()  returns FALSE (0000ms, 0675ms total)
T4038 001:741 JLINK_IsHalted()  returns FALSE (0000ms, 0675ms total)
T4038 001:743 JLINK_IsHalted()  returns FALSE (0000ms, 0675ms total)
T4038 001:745 JLINK_IsHalted()  returns FALSE (0000ms, 0675ms total)
T4038 001:747 JLINK_IsHalted()  returns FALSE (0000ms, 0675ms total)
T4038 001:749 JLINK_IsHalted()  returns FALSE (0000ms, 0675ms total)
T4038 001:751 JLINK_IsHalted()  returns FALSE (0000ms, 0675ms total)
T4038 001:753 JLINK_IsHalted()  returns FALSE (0000ms, 0675ms total)
T4038 001:755 JLINK_IsHalted()  returns FALSE (0000ms, 0675ms total)
T4038 001:757 JLINK_IsHalted()  returns FALSE (0000ms, 0675ms total)
T4038 001:759 JLINK_IsHalted() -- CPU_ReadMem(2 bytes @ 0x20000000)  returns TRUE (0005ms, 0680ms total)
T4038 001:764 JLINK_ReadReg(R15 (PC))  returns 0x20000000 (0000ms, 0675ms total)
T4038 001:764 JLINK_ClrBPEx(BPHandle = 0x0000000B)  returns 0x00 (0000ms, 0675ms total)
T4038 001:764 JLINK_ReadReg(R0)  returns 0x00000000 (0000ms, 0675ms total)
T4038 001:765 JLINK_WriteMem(0x20000164, 0x029C Bytes, ...) - Data: 1A 40 02 82 02 8A 0A 43 02 82 70 47 82 89 4F F2 ... -- CPU_WriteMem(668 bytes @ 0x20000164)  returns 0x29C (0008ms, 0683ms total)
T4038 001:773 JLINK_WriteMem(0x20000400, 0x0164 Bytes, ...) - Data: 4F F0 E0 22 11 61 07 E0 4F F0 E0 21 09 69 21 F0 ... -- CPU_WriteMem(356 bytes @ 0x20000400)  returns 0x164 (0004ms, 0687ms total)
T4038 001:777 JLINK_WriteReg(R0, 0x08001C00)  returns 0x00 (0000ms, 0687ms total)
T4038 001:777 JLINK_WriteReg(R1, 0x00000400)  returns 0x00 (0000ms, 0687ms total)
T4038 001:777 JLINK_WriteReg(R2, 0x20000164)  returns 0x00 (0000ms, 0687ms total)
T4038 001:777 JLINK_WriteReg(R3, 0x00000000)  returns 0x00 (0000ms, 0687ms total)
T4038 001:777 JLINK_WriteReg(R4, 0x00000000)  returns 0x00 (0000ms, 0687ms total)
T4038 001:777 JLINK_WriteReg(R5, 0x00000000)  returns 0x00 (0000ms, 0687ms total)
T4038 001:777 JLINK_WriteReg(R6, 0x00000000)  returns 0x00 (0000ms, 0687ms total)
T4038 001:777 JLINK_WriteReg(R7, 0x00000000)  returns 0x00 (0000ms, 0687ms total)
T4038 001:777 JLINK_WriteReg(R8, 0x00000000)  returns 0x00 (0000ms, 0687ms total)
T4038 001:777 JLINK_WriteReg(R9, 0x20000160)  returns 0x00 (0000ms, 0687ms total)
T4038 001:777 JLINK_WriteReg(R10, 0x00000000)  returns 0x00 (0000ms, 0687ms total)
T4038 001:777 JLINK_WriteReg(R11, 0x00000000)  returns 0x00 (0000ms, 0687ms total)
T4038 001:777 JLINK_WriteReg(R12, 0x00000000)  returns 0x00 (0000ms, 0687ms total)
T4038 001:777 JLINK_WriteReg(R13 (SP), 0x20001000)  returns 0x00 (0000ms, 0687ms total)
T4038 001:777 JLINK_WriteReg(R14, 0x20000001)  returns 0x00 (0000ms, 0687ms total)
T4038 001:778 JLINK_WriteReg(R15 (PC), 0x200000F4)  returns 0x00 (0000ms, 0687ms total)
T4038 001:778 JLINK_WriteReg(XPSR, 0x01000000)  returns 0x00 (0000ms, 0687ms total)
T4038 001:778 JLINK_WriteReg(MSP, 0x20001000)  returns 0x00 (0000ms, 0687ms total)
T4038 001:778 JLINK_WriteReg(PSP, 0x20001000)  returns 0x00 (0000ms, 0687ms total)
T4038 001:778 JLINK_WriteReg(CFBP, 0x00000000)  returns 0x00 (0000ms, 0687ms total)
T4038 001:778 JLINK_SetBPEx(Addr = 0x20000000, Type = 0xFFFFFFF2)  returns 0x0000000C (0000ms, 0687ms total)
T4038 001:778 JLINK_Go() -- CPU_ReadMem(4 bytes @ 0xE0001000) (0003ms, 0690ms total)
T4038 001:781 JLINK_IsHalted()  returns FALSE (0000ms, 0690ms total)
T4038 001:793 JLINK_IsHalted()  returns FALSE (0000ms, 0690ms total)
T4038 001:795 JLINK_IsHalted()  returns FALSE (0000ms, 0690ms total)
T4038 001:797 JLINK_IsHalted()  returns FALSE (0000ms, 0690ms total)
T4038 001:799 JLINK_IsHalted()  returns FALSE (0000ms, 0690ms total)
T4038 001:801 JLINK_IsHalted()  returns FALSE (0000ms, 0690ms total)
T4038 001:803 JLINK_IsHalted()  returns FALSE (0000ms, 0690ms total)
T4038 001:805 JLINK_IsHalted()  returns FALSE (0000ms, 0690ms total)
T4038 001:807 JLINK_IsHalted()  returns FALSE (0000ms, 0690ms total)
T4038 001:809 JLINK_IsHalted()  returns FALSE (0000ms, 0690ms total)
T4038 001:811 JLINK_IsHalted()  returns FALSE (0000ms, 0690ms total)
T4038 001:813 JLINK_IsHalted() -- CPU_ReadMem(2 bytes @ 0x20000000)  returns TRUE (0005ms, 0695ms total)
T4038 001:818 JLINK_ReadReg(R15 (PC))  returns 0x20000000 (0000ms, 0690ms total)
T4038 001:818 JLINK_ClrBPEx(BPHandle = 0x0000000C)  returns 0x00 (0000ms, 0690ms total)
T4038 001:818 JLINK_ReadReg(R0)  returns 0x00000000 (0000ms, 0690ms total)
T4038 001:819 JLINK_WriteMem(0x20000164, 0x029C Bytes, ...) - Data: 01 DB FF 2F 02 DD 02 27 4F F0 00 08 E0 88 40 EA ... -- CPU_WriteMem(668 bytes @ 0x20000164)  returns 0x29C (0007ms, 0697ms total)
T4038 001:826 JLINK_WriteMem(0x20000400, 0x0164 Bytes, ...) - Data: 10 32 11 60 70 47 01 46 00 20 11 4A 14 32 12 68 ... -- CPU_WriteMem(356 bytes @ 0x20000400)  returns 0x164 (0004ms, 0701ms total)
T4038 001:830 JLINK_WriteReg(R0, 0x08002000)  returns 0x00 (0000ms, 0701ms total)
T4038 001:830 JLINK_WriteReg(R1, 0x00000400)  returns 0x00 (0000ms, 0701ms total)
T4038 001:830 JLINK_WriteReg(R2, 0x20000164)  returns 0x00 (0001ms, 0702ms total)
T4038 001:831 JLINK_WriteReg(R3, 0x00000000)  returns 0x00 (0000ms, 0702ms total)
T4038 001:831 JLINK_WriteReg(R4, 0x00000000)  returns 0x00 (0000ms, 0702ms total)
T4038 001:831 JLINK_WriteReg(R5, 0x00000000)  returns 0x00 (0000ms, 0702ms total)
T4038 001:831 JLINK_WriteReg(R6, 0x00000000)  returns 0x00 (0000ms, 0702ms total)
T4038 001:831 JLINK_WriteReg(R7, 0x00000000)  returns 0x00 (0000ms, 0702ms total)
T4038 001:831 JLINK_WriteReg(R8, 0x00000000)  returns 0x00 (0000ms, 0702ms total)
T4038 001:831 JLINK_WriteReg(R9, 0x20000160)  returns 0x00 (0000ms, 0702ms total)
T4038 001:831 JLINK_WriteReg(R10, 0x00000000)  returns 0x00 (0000ms, 0702ms total)
T4038 001:831 JLINK_WriteReg(R11, 0x00000000)  returns 0x00 (0000ms, 0702ms total)
T4038 001:831 JLINK_WriteReg(R12, 0x00000000)  returns 0x00 (0000ms, 0702ms total)
T4038 001:831 JLINK_WriteReg(R13 (SP), 0x20001000)  returns 0x00 (0000ms, 0702ms total)
T4038 001:831 JLINK_WriteReg(R14, 0x20000001)  returns 0x00 (0000ms, 0702ms total)
T4038 001:831 JLINK_WriteReg(R15 (PC), 0x200000F4)  returns 0x00 (0000ms, 0702ms total)
T4038 001:831 JLINK_WriteReg(XPSR, 0x01000000)  returns 0x00 (0000ms, 0702ms total)
T4038 001:831 JLINK_WriteReg(MSP, 0x20001000)  returns 0x00 (0000ms, 0702ms total)
T4038 001:831 JLINK_WriteReg(PSP, 0x20001000)  returns 0x00 (0000ms, 0702ms total)
T4038 001:831 JLINK_WriteReg(CFBP, 0x00000000)  returns 0x00 (0000ms, 0702ms total)
T4038 001:831 JLINK_SetBPEx(Addr = 0x20000000, Type = 0xFFFFFFF2)  returns 0x0000000D (0000ms, 0702ms total)
T4038 001:831 JLINK_Go() -- CPU_ReadMem(4 bytes @ 0xE0001000) (0003ms, 0705ms total)
T4038 001:834 JLINK_IsHalted()  returns FALSE (0001ms, 0706ms total)
T4038 001:837 JLINK_IsHalted()  returns FALSE (0000ms, 0705ms total)
T4038 001:839 JLINK_IsHalted()  returns FALSE (0000ms, 0705ms total)
T4038 001:841 JLINK_IsHalted()  returns FALSE (0000ms, 0705ms total)
T4038 001:843 JLINK_IsHalted()  returns FALSE (0000ms, 0705ms total)
T4038 001:845 JLINK_IsHalted()  returns FALSE (0000ms, 0705ms total)
T4038 001:847 JLINK_IsHalted()  returns FALSE (0000ms, 0705ms total)
T4038 001:849 JLINK_IsHalted()  returns FALSE (0000ms, 0705ms total)
T4038 001:851 JLINK_IsHalted()  returns FALSE (0000ms, 0705ms total)
T4038 001:853 JLINK_IsHalted()  returns FALSE (0000ms, 0705ms total)
T4038 001:855 JLINK_IsHalted()  returns FALSE (0000ms, 0705ms total)
T4038 001:859 JLINK_IsHalted()  returns FALSE (0000ms, 0705ms total)
T4038 001:861 JLINK_IsHalted()  returns FALSE (0000ms, 0705ms total)
T4038 001:863 JLINK_IsHalted()  returns FALSE (0000ms, 0705ms total)
T4038 001:865 JLINK_IsHalted()  returns FALSE (0000ms, 0705ms total)
T4038 001:867 JLINK_IsHalted() -- CPU_ReadMem(2 bytes @ 0x20000000)  returns TRUE (0005ms, 0710ms total)
T4038 001:872 JLINK_ReadReg(R15 (PC))  returns 0x20000000 (0000ms, 0705ms total)
T4038 001:872 JLINK_ClrBPEx(BPHandle = 0x0000000D)  returns 0x00 (0000ms, 0705ms total)
T4038 001:872 JLINK_ReadReg(R0)  returns 0x00000000 (0000ms, 0705ms total)
T4038 001:873 JLINK_WriteMem(0x20000164, 0x029C Bytes, ...) - Data: 01 21 20 20 90 47 20 6A 40 1C 20 62 6D 1E F6 D5 ... -- CPU_WriteMem(668 bytes @ 0x20000164)  returns 0x29C (0007ms, 0712ms total)
T4038 001:880 JLINK_WriteMem(0x20000400, 0x0164 Bytes, ...) - Data: 30 B4 00 21 00 F1 24 04 08 E0 02 F0 07 05 D2 08 ... -- CPU_WriteMem(356 bytes @ 0x20000400)  returns 0x164 (0004ms, 0716ms total)
T4038 001:885 JLINK_WriteReg(R0, 0x08002400)  returns 0x00 (0000ms, 0716ms total)
T4038 001:885 JLINK_WriteReg(R1, 0x00000400)  returns 0x00 (0000ms, 0716ms total)
T4038 001:885 JLINK_WriteReg(R2, 0x20000164)  returns 0x00 (0000ms, 0716ms total)
T4038 001:885 JLINK_WriteReg(R3, 0x00000000)  returns 0x00 (0000ms, 0716ms total)
